
T0C14 000:040 SEGGER J-Link V6.00f Log File (0000ms, 0021ms total)
T0C14 000:040 DLL Compiled: Aug 11 2016 18:36:04 (0000ms, 0021ms total)
T0C14 000:040 Logging started @ 2017-03-16 14:07 (0000ms, 0021ms total)
T0C14 000:040 JLINK_SetWarnOutHandler(...) (0000ms, 0021ms total)
T0C14 000:040 JLINK_OpenEx(...)
Firmware: J-Link V9 compiled Sep  1 2016 18:29:50
Hardware: V9.20
Feature(s): GDB, RDI, FlashBP, FlashDL, JFlash  returns O.K. (0022ms, 0043ms total)
T0C14 000:062 JLINK_SetErrorOutHandler(...) (0000ms, 0043ms total)
T0C14 000:062 JLINK_ExecCommand("ProjectFile = "F:\xd_bgc\JLinkSettings.ini"", ...).   returns 0x00 (0117ms, 0160ms total)
T0C14 000:179 JLINK_ExecCommand("Device = STM32F407VGTx", ...). Device "STM32F407VG" selected.  returns 0x00 (0002ms, 0162ms total)
T0C14 000:181 JLINK_ExecCommand("DisableConnectionTimeout", ...).   returns 0x01 (0000ms, 0162ms total)
T0C14 000:181 JLINK_GetHardwareVersion()  returns 0x16760 (0000ms, 0162ms total)
T0C14 000:181 JLINK_GetDLLVersion()  returns 60006 (0000ms, 0162ms total)
T0C14 000:181 JLINK_GetFirmwareString(...) (0000ms, 0162ms total)
T0C14 000:182 JLINK_GetDLLVersion()  returns 60006 (0000ms, 0162ms total)
T0C14 000:182 JLINK_GetCompileDateTime() (0000ms, 0162ms total)
T0C14 000:185 JLINK_GetFirmwareString(...) (0000ms, 0162ms total)
T0C14 000:186 JLINK_GetHardwareVersion()  returns 0x16760 (0000ms, 0162ms total)
T0C14 000:187 JLINK_TIF_Select(JLINKARM_TIF_SWD)  returns 0x00 (0001ms, 0163ms total)
T0C14 000:188 JLINK_SetSpeed(2000) (0001ms, 0164ms total)
T0C14 000:189 JLINK_GetId() >0x108 TIF>Found SWD-DP with ID 0x2BA01477 >0x0D TIF> >0x28 TIF> >0x0D TIF> >0x28 TIF> >0x0D TIF> >0x28 TIF> >0x0D TIF> >0x28 TIF> >0x0D TIF> >0x21 TIF> >0x0D TIF> >0x28 TIF> >0x0D TIF> >0x28 TIF> >0x0D TIF> >0x28 TIF> >0x0D TIF> >0x21 TIF> >0x0D TIF> >0x21 TIF> >0x0D TIF> >0x28 TIF> >0x0D TIF> >0x21 TIF> >0x0D TIF> >0x21 TIF> >0x0D TIF> >0x28 TIF> >0x0D TIF> >0x21 TIF> >0x0D TIF> >0x21 TIF> >0x0D TIF> >0x28 TIF> >0x0D TIF> >0x21 TIF> >0x0D TIF> >0x21 TIF> >0x0D TIF>
 >0x28 TIF> >0x0D TIF> >0x21 TIF> >0x0D TIF> >0x21 TIF> >0x0D TIF> >0x28 TIF> >0x0D TIF> >0x21 TIF> >0x0D TIF> >0x21 TIF> >0x108 TIF>Found SWD-DP with ID 0x2BA01477 >0x0D TIF> >0x28 TIF> >0x0D TIF> >0x28 TIF> >0x0D TIF> >0x28 TIF> >0x0D TIF> >0x28 TIF> >0x0D TIF> >0x21 TIF> >0x0D TIF> >0x28 TIF> >0x0D TIF> >0x28 TIF> >0x0D TIF> >0x21 TIF> >0x0D TIF> >0x21 TIF> >0x0D TIF> >0x21 TIF>AP-IDR: 0x24770011, Type: AHB-AP >0x0D TIF> >0x28 TIF> >0x0D TIF> >0x28 TIF> >0x0D TIF> >0x28 TIF> >0x0D TIF> >0x21 TIF>
 >0x0D TIF> >0x21 TIF> >0x0D TIF> >0x28 TIF> >0x0D TIF> >0x21 TIF> >0x0D TIF> >0x21 TIF>Found Cortex-M4 r0p1, Little endian. -- CPU_ReadMem(4 bytes @ 0xE000EDF0) -- CPU_ReadMem(4 bytes @ 0xE0002000)FPUnit: 6 code (BP) slots and 2 literal slots -- CPU_ReadMem(4 bytes @ 0xE000EDFC) -- CPU_ReadMem(4 bytes @ 0xE0001000) -- CPU_WriteMem(4 bytes @ 0xE0001000) -- CPU_ReadMem(4 bytes @ 0xE000ED88) -- CPU_WriteMem(4 bytes @ 0xE000ED88) -- CPU_ReadMem(4 bytes @ 0xE000ED88) -- CPU_WriteMem(4 bytes @ 0xE000ED88)
CoreSight components:ROMTbl 0 @ E00FF000 -- CPU_ReadMem(16 bytes @ 0xE00FF000) -- CPU_ReadMem(16 bytes @ 0xE000EFF0) -- CPU_ReadMem(16 bytes @ 0xE000EFE0)ROMTbl 0 [0]: FFF0F000, CID: B105E00D, PID: 000BB00C SCS -- CPU_ReadMem(16 bytes @ 0xE0001FF0) -- CPU_ReadMem(16 bytes @ 0xE0001FE0)ROMTbl 0 [1]: FFF02000, CID: B105E00D, PID: 003BB002 DWT -- CPU_ReadMem(16 bytes @ 0xE0002FF0) -- CPU_ReadMem(16 bytes @ 0xE0002FE0)ROMTbl 0 [2]: FFF03000, CID: B105E00D, PID: 002BB003 FPB
 -- CPU_ReadMem(16 bytes @ 0xE0000FF0) -- CPU_ReadMem(16 bytes @ 0xE0000FE0)ROMTbl 0 [3]: FFF01000, CID: B105E00D, PID: 003BB001 ITM -- CPU_ReadMem(16 bytes @ 0xE00FF010) -- CPU_ReadMem(16 bytes @ 0xE0040FF0) -- CPU_ReadMem(16 bytes @ 0xE0040FE0)ROMTbl 0 [4]: FFF41000, CID: B105900D, PID: 000BB9A1 TPIU -- CPU_ReadMem(16 bytes @ 0xE0041FF0) -- CPU_ReadMem(16 bytes @ 0xE0041FE0)ROMTbl 0 [5]: FFF42000, CID: B105900D, PID: 000BB925 ETM >0x0D TIF> >0x21 TIF>  returns 0x2BA01477 (0053ms, 0217ms total)
T0C14 000:242 JLINK_GetDLLVersion()  returns 60006 (0000ms, 0217ms total)
T0C14 000:242 JLINK_CORE_GetFound()  returns 0xE0000FF (0000ms, 0217ms total)
T0C14 000:242 JLINK_GetDebugInfo(0x100) -- Value=0xE00FF000  returns 0x00 (0000ms, 0217ms total)
T0C14 000:242 JLINK_GetDebugInfo(0x100) -- Value=0xE00FF000  returns 0x00 (0000ms, 0217ms total)
T0C14 000:242 JLINK_GetDebugInfo(0x101) -- Value=0xE0041000  returns 0x00 (0000ms, 0217ms total)
T0C14 000:242 JLINK_GetDebugInfo(0x102) -- Value=0x00000000  returns 0x00 (0000ms, 0217ms total)
T0C14 000:242 JLINK_GetDebugInfo(0x103) -- Value=0xE0040000  returns 0x00 (0000ms, 0217ms total)
T0C14 000:242 JLINK_GetDebugInfo(0x104) -- Value=0xE0000000  returns 0x00 (0000ms, 0217ms total)
T0C14 000:242 JLINK_GetDebugInfo(0x105) -- Value=0xE0001000  returns 0x00 (0000ms, 0217ms total)
T0C14 000:242 JLINK_GetDebugInfo(0x106) -- Value=0xE0002000  returns 0x00 (0000ms, 0217ms total)
T0C14 000:242 JLINK_GetDebugInfo(0x107) -- Value=0xE000E000  returns 0x00 (0000ms, 0217ms total)
T0C14 000:242 JLINK_GetDebugInfo(0x10C) -- Value=0xE000EDF0  returns 0x00 (0000ms, 0217ms total)
T0C14 000:242 JLINK_ReadMemU32(0xE000EF40, 0x0001 Items, ...) -- CPU is running -- CPU_ReadMem(4 bytes @ 0xE000EF40) - Data: 21 00 11 10  returns 0x01 (0001ms, 0218ms total)
T0C14 000:243 JLINK_ReadMemU32(0xE000EF44, 0x0001 Items, ...) -- CPU is running -- CPU_ReadMem(4 bytes @ 0xE000EF44) - Data: 11 00 00 11  returns 0x01 (0000ms, 0218ms total)
T0C14 000:243 JLINK_ReadMemU32(0xE000ED00, 0x0001 Items, ...) -- CPU is running -- CPU_ReadMem(4 bytes @ 0xE000ED00) - Data: 41 C2 0F 41  returns 0x01 (0001ms, 0219ms total)
T0C14 000:244 JLINK_SetResetType(JLINKARM_RESET_TYPE_NORMAL)  returns JLINKARM_RESET_TYPE_NORMAL (0000ms, 0219ms total)
T0C14 000:244 JLINK_Reset() -- CPU is running -- CPU_WriteMem(4 bytes @ 0xE000EDF0) -- CPU is running -- CPU_WriteMem(4 bytes @ 0xE000EDFC) >0x35 TIF> -- CPU is running -- CPU_WriteMem(4 bytes @ 0xE000ED0C) -- CPU is running -- CPU_ReadMem(4 bytes @ 0xE000EDF0) -- CPU is running -- CPU_ReadMem(4 bytes @ 0xE000EDF0) -- CPU is running -- CPU_WriteMem(4 bytes @ 0xE000EDF0) -- CPU is running -- CPU_WriteMem(4 bytes @ 0xE000EDFC) -- CPU is running -- CPU_ReadMem(4 bytes @ 0xE000EDF0)
 -- CPU_WriteMem(4 bytes @ 0xE0002000) -- CPU_ReadMem(4 bytes @ 0xE000EDFC) -- CPU_ReadMem(4 bytes @ 0xE0001000) (0022ms, 0241ms total)
T0C14 000:266 JLINK_ReadReg(R15 (PC))  returns 0x08013074 (0000ms, 0241ms total)
T0C14 000:266 JLINK_ReadReg(XPSR)  returns 0x01000000 (0000ms, 0241ms total)
T0C14 000:266 JLINK_Halt()  returns 0x00 (0000ms, 0241ms total)
T0C14 000:266 JLINK_IsHalted()  returns TRUE (0000ms, 0241ms total)
T0C14 000:266 JLINK_ReadMemU32(0xE000EDF0, 0x0001 Items, ...) -- CPU_ReadMem(4 bytes @ 0xE000EDF0) - Data: 03 00 03 00  returns 0x01 (0001ms, 0242ms total)
T0C14 000:267 JLINK_WriteU32(0xE000EDF0, 0xA05F0003) -- CPU_WriteMem(4 bytes @ 0xE000EDF0)  returns 0x00 (0001ms, 0243ms total)
T0C14 000:268 JLINK_WriteU32(0xE000EDFC, 0x01000000) -- CPU_WriteMem(4 bytes @ 0xE000EDFC)  returns 0x00 (0001ms, 0244ms total)
T0C14 000:269 JLINK_GetHWStatus(...)  returns 0x00 (0001ms, 0245ms total)
T0C14 000:270 JLINK_GetNumBPUnits(Type = 0xFFFFFF00)  returns 0x06 (0000ms, 0245ms total)
T0C14 000:270 JLINK_GetNumBPUnits(Type = 0xF0)  returns 0x2000 (0000ms, 0245ms total)
T0C14 000:270 JLINK_GetNumWPUnits()  returns 0x04 (0000ms, 0245ms total)
T0C14 000:270 JLINK_GetSpeed()  returns 0x7D0 (0000ms, 0245ms total)
T0C14 000:271 JLINK_ReadMemU32(0xE000E004, 0x0001 Items, ...) -- CPU_ReadMem(4 bytes @ 0xE000E004) - Data: 02 00 00 00  returns 0x01 (0000ms, 0245ms total)
T0C14 000:271 JLINK_ReadMemU32(0xE000E004, 0x0001 Items, ...) -- CPU_ReadMem(4 bytes @ 0xE000E004) - Data: 02 00 00 00  returns 0x01 (0001ms, 0246ms total)
T0C14 000:272 JLINK_WriteMem(0xE0001000, 0x001C Bytes, ...) - Data: 01 00 00 00 00 00 00 00 00 00 00 00 00 00 00 00 ... -- CPU_WriteMem(28 bytes @ 0xE0001000)  returns 0x1C (0001ms, 0247ms total)
T0C14 000:273 JLINK_ReadMem (0xE0001000, 0x001C Bytes, ...) -- CPU_ReadMem(28 bytes @ 0xE0001000) - Data: 01 00 00 40 00 00 00 00 00 00 00 00 00 00 00 00 ...  returns 0x00 (0001ms, 0248ms total)
T0C14 000:274 JLINK_ReadReg(R15 (PC))  returns 0x08013074 (0000ms, 0248ms total)
T0C14 000:274 JLINK_ReadReg(XPSR)  returns 0x01000000 (0000ms, 0248ms total)
T0C14 000:516 JLINK_SetResetType(JLINKARM_RESET_TYPE_NORMAL)  returns JLINKARM_RESET_TYPE_NORMAL (0000ms, 0248ms total)
T0C14 000:516 JLINK_Reset() -- CPU_WriteMem(4 bytes @ 0xE000EDF0) -- CPU_WriteMem(4 bytes @ 0xE000EDFC) >0x35 TIF> -- CPU_WriteMem(4 bytes @ 0xE000ED0C) -- CPU_ReadMem(4 bytes @ 0xE000EDF0) -- CPU_ReadMem(4 bytes @ 0xE000EDF0) -- CPU_WriteMem(4 bytes @ 0xE000EDF0) -- CPU_WriteMem(4 bytes @ 0xE000EDFC) -- CPU is running -- CPU_ReadMem(4 bytes @ 0xE000EDF0) -- CPU_WriteMem(4 bytes @ 0xE0002000) -- CPU_ReadMem(4 bytes @ 0xE000EDFC) -- CPU_ReadMem(4 bytes @ 0xE0001000) (0022ms, 0270ms total)
T0C14 000:538 JLINK_ReadReg(R15 (PC))  returns 0x08013074 (0000ms, 0270ms total)
T0C14 000:538 JLINK_ReadReg(XPSR)  returns 0x01000000 (0000ms, 0270ms total)
T0C14 000:566 JLINK_ReadMem (0x08012F74, 0x003C Bytes, ...) -- CPU_ReadMem(128 bytes @ 0x08012F40) -- Updating C cache (128 bytes @ 0x08012F40) -- Read from C cache (60 bytes @ 0x08012F74) - Data: 06 F6 B8 F1 01 0F 02 D1 A8 89 06 40 07 E0 B8 F1 ...  returns 0x00 (0002ms, 0272ms total)
T0C14 000:568 JLINK_ReadMem (0x08012FB0, 0x003C Bytes, ...) -- CPU_ReadMem(64 bytes @ 0x08012FC0) -- Updating C cache (64 bytes @ 0x08012FC0) -- Read from C cache (60 bytes @ 0x08012FB0) - Data: F0 87 2D E9 F0 41 04 46 0D 46 00 26 00 27 28 48 ...  returns 0x00 (0002ms, 0274ms total)
T0C14 000:570 JLINK_ReadMem (0x08012FEC, 0x0014 Bytes, ...) -- Read from C cache (20 bytes @ 0x08012FEC) - Data: F5 F7 76 F8 40 F2 26 60 85 42 0B D0 40 F2 25 50 ...  returns 0x00 (0000ms, 0274ms total)
T0C14 000:570 JLINK_ReadMem (0x08013000, 0x0028 Bytes, ...) -- CPU_ReadMem(64 bytes @ 0x08013000) -- Updating C cache (64 bytes @ 0x08013000) -- Read from C cache (40 bytes @ 0x08013000) - Data: 40 F6 46 00 85 42 03 D0 40 F6 6A 10 85 42 00 D1 ...  returns 0x00 (0001ms, 0275ms total)
T0C14 000:571 JLINK_ReadMem (0x08013028, 0x003C Bytes, ...) -- CPU_ReadMem(64 bytes @ 0x08013040) -- Updating C cache (64 bytes @ 0x08013040) -- Read from C cache (60 bytes @ 0x08013028) - Data: 84 42 08 D0 0D 48 84 42 05 D0 0D 48 84 42 02 D0 ...  returns 0x00 (0001ms, 0276ms total)
T0C14 000:572 JLINK_ReadMem (0x08013072, 0x0002 Bytes, ...) -- Read from C cache (2 bytes @ 0x08013072) - Data: 00 40  returns 0x00 (0000ms, 0276ms total)
T0C14 000:572 JLINK_ReadMem (0x08013074, 0x003C Bytes, ...) -- CPU_ReadMem(64 bytes @ 0x08013080) -- Updating C cache (64 bytes @ 0x08013080) -- Read from C cache (60 bytes @ 0x08013074) - Data: 09 48 80 47 09 48 00 47 FE E7 FE E7 FE E7 FE E7 ...  returns 0x00 (0002ms, 0278ms total)
T1C874 002:339 JLINK_SetBPEx(Addr = 0x08008134, Type = 0xFFFFFFF2)  returns 0x00000001 (0000ms, 0278ms total)
T1C874 002:339 JLINK_SetBPEx(Addr = 0x0800578A, Type = 0xFFFFFFF2)  returns 0x00000002 (0000ms, 0278ms total)
T1C874 002:339 JLINK_Go() -- CPU_WriteMem(4 bytes @ 0xE0002000) -- CPU_WriteMem(4 bytes @ 0xE0002000) -- CPU_ReadMem(4 bytes @ 0xE0001000) -- CPU_WriteMem(4 bytes @ 0xE0002008) -- CPU_WriteMem(4 bytes @ 0xE000200C) -- CPU_WriteMem(4 bytes @ 0xE0002010) -- CPU_WriteMem(4 bytes @ 0xE0002014) -- CPU_WriteMem(4 bytes @ 0xE0002018) -- CPU_WriteMem(4 bytes @ 0xE000201C) -- CPU_WriteMem(4 bytes @ 0xE0001004) (0006ms, 0284ms total)
T1C874 002:445 JLINK_IsHalted()  returns TRUE (0005ms, 0289ms total)
T1C874 002:450 JLINK_Halt()  returns 0x00 (0000ms, 0284ms total)
T1C874 002:450 JLINK_IsHalted()  returns TRUE (0000ms, 0284ms total)
T1C874 002:450 JLINK_IsHalted()  returns TRUE (0000ms, 0284ms total)
T1C874 002:450 JLINK_IsHalted()  returns TRUE (0000ms, 0284ms total)
T1C874 002:450 JLINK_ReadReg(R15 (PC))  returns 0x08008134 (0000ms, 0284ms total)
T1C874 002:450 JLINK_ReadReg(XPSR)  returns 0x61000000 (0000ms, 0284ms total)
T1C874 002:450 JLINK_ClrBPEx(BPHandle = 0x00000001)  returns 0x00 (0000ms, 0284ms total)
T1C874 002:450 JLINK_ClrBPEx(BPHandle = 0x00000002)  returns 0x00 (0000ms, 0284ms total)
T1C874 002:450 JLINK_ReadMemU32(0xE000ED30, 0x0001 Items, ...) -- CPU_ReadMem(4 bytes @ 0xE000ED30) - Data: 02 00 00 00  returns 0x01 (0000ms, 0284ms total)
T1C874 002:450 JLINK_ReadMemU32(0xE0001028, 0x0001 Items, ...) -- CPU_ReadMem(4 bytes @ 0xE0001028) - Data: 00 00 00 00  returns 0x01 (0001ms, 0285ms total)
T1C874 002:451 JLINK_ReadMemU32(0xE0001038, 0x0001 Items, ...) -- CPU_ReadMem(4 bytes @ 0xE0001038) - Data: 00 02 00 00  returns 0x01 (0000ms, 0285ms total)
T1C874 002:451 JLINK_ReadMemU32(0xE0001048, 0x0001 Items, ...) -- CPU_ReadMem(4 bytes @ 0xE0001048) - Data: 00 00 00 00  returns 0x01 (0001ms, 0286ms total)
T1C874 002:452 JLINK_ReadMemU32(0xE0001058, 0x0001 Items, ...) -- CPU_ReadMem(4 bytes @ 0xE0001058) - Data: 00 00 00 00  returns 0x01 (0000ms, 0286ms total)
T1C874 002:453 JLINK_ReadReg(R0)  returns 0x20004528 (0000ms, 0286ms total)
T1C874 002:453 JLINK_ReadReg(R1)  returns 0x20006528 (0000ms, 0286ms total)
T1C874 002:453 JLINK_ReadReg(R2)  returns 0x20006528 (0000ms, 0286ms total)
T1C874 002:453 JLINK_ReadReg(R3)  returns 0x20006528 (0000ms, 0286ms total)
T1C874 002:453 JLINK_ReadReg(R4)  returns 0x00000000 (0000ms, 0286ms total)
T1C874 002:453 JLINK_ReadReg(R5)  returns 0x200044C8 (0000ms, 0286ms total)
T1C874 002:453 JLINK_ReadReg(R6)  returns 0x00000000 (0000ms, 0286ms total)
T1C874 002:453 JLINK_ReadReg(R7)  returns 0x00000000 (0000ms, 0286ms total)
T1C874 002:453 JLINK_ReadReg(R8)  returns 0x00000000 (0000ms, 0286ms total)
T1C874 002:453 JLINK_ReadReg(R9)  returns 0x00000000 (0000ms, 0286ms total)
T1C874 002:453 JLINK_ReadReg(R10)  returns 0x08023F1C (0000ms, 0286ms total)
T1C874 002:453 JLINK_ReadReg(R11)  returns 0x00000000 (0000ms, 0286ms total)
T1C874 002:453 JLINK_ReadReg(R12)  returns 0x20004538 (0000ms, 0286ms total)
T1C874 002:453 JLINK_ReadReg(R13 (SP))  returns 0x20007528 (0000ms, 0286ms total)
T1C874 002:453 JLINK_ReadReg(R14)  returns 0x0800027B (0000ms, 0286ms total)
T1C874 002:453 JLINK_ReadReg(R15 (PC))  returns 0x08008134 (0000ms, 0286ms total)
T1C874 002:453 JLINK_ReadReg(XPSR)  returns 0x61000000 (0000ms, 0286ms total)
T1C874 002:453 JLINK_ReadReg(MSP)  returns 0x20007528 (0000ms, 0286ms total)
T1C874 002:453 JLINK_ReadReg(PSP)  returns 0x00000000 (0000ms, 0286ms total)
T1C874 002:453 JLINK_ReadReg(CFBP)  returns 0x04000000 (0000ms, 0286ms total)
T1C874 002:453 JLINK_ReadReg(FPSCR)  returns 0x23000010 (0006ms, 0292ms total)
T1C874 002:459 JLINK_ReadReg(FPS0)  returns 0x40900000 (0001ms, 0293ms total)
T1C874 002:460 JLINK_ReadReg(FPS1)  returns 0x3C23D70A (0000ms, 0293ms total)
T1C874 002:460 JLINK_ReadReg(FPS2)  returns 0x00000000 (0000ms, 0293ms total)
T1C874 002:460 JLINK_ReadReg(FPS3)  returns 0x447A0000 (0000ms, 0293ms total)
T1C874 002:460 JLINK_ReadReg(FPS4)  returns 0x40A00000 (0000ms, 0293ms total)
T1C874 002:460 JLINK_ReadReg(FPS5)  returns 0x3B23D70A (0000ms, 0293ms total)
T1C874 002:460 JLINK_ReadReg(FPS6)  returns 0x00000000 (0000ms, 0293ms total)
T1C874 002:460 JLINK_ReadReg(FPS7)  returns 0x00000000 (0000ms, 0293ms total)
T1C874 002:460 JLINK_ReadReg(FPS8)  returns 0x00000000 (0000ms, 0293ms total)
T1C874 002:460 JLINK_ReadReg(FPS9)  returns 0x00000000 (0000ms, 0293ms total)
T1C874 002:460 JLINK_ReadReg(FPS10)  returns 0x00000000 (0000ms, 0293ms total)
T1C874 002:460 JLINK_ReadReg(FPS11)  returns 0x00000000 (0000ms, 0293ms total)
T1C874 002:460 JLINK_ReadReg(FPS12)  returns 0x00000000 (0000ms, 0293ms total)
T1C874 002:460 JLINK_ReadReg(FPS13)  returns 0x00000000 (0000ms, 0293ms total)
T1C874 002:460 JLINK_ReadReg(FPS14)  returns 0x00000000 (0000ms, 0293ms total)
T1C874 002:460 JLINK_ReadReg(FPS15)  returns 0x00000000 (0000ms, 0293ms total)
T1C874 002:460 JLINK_ReadReg(FPS16)  returns 0x00000000 (0000ms, 0293ms total)
T1C874 002:460 JLINK_ReadReg(FPS17)  returns 0x00000000 (0000ms, 0293ms total)
T1C874 002:460 JLINK_ReadReg(FPS18)  returns 0x00000000 (0000ms, 0293ms total)
T1C874 002:460 JLINK_ReadReg(FPS19)  returns 0x00000000 (0000ms, 0293ms total)
T1C874 002:460 JLINK_ReadReg(FPS20)  returns 0x00000000 (0000ms, 0293ms total)
T1C874 002:460 JLINK_ReadReg(FPS21)  returns 0x00000000 (0000ms, 0293ms total)
T1C874 002:460 JLINK_ReadReg(FPS22)  returns 0x00000000 (0000ms, 0293ms total)
T1C874 002:460 JLINK_ReadReg(FPS23)  returns 0x00000000 (0000ms, 0293ms total)
T1C874 002:460 JLINK_ReadReg(FPS24)  returns 0x00000000 (0000ms, 0293ms total)
T1C874 002:460 JLINK_ReadReg(FPS25)  returns 0x00000000 (0000ms, 0293ms total)
T1C874 002:460 JLINK_ReadReg(FPS26)  returns 0x00000000 (0000ms, 0293ms total)
T1C874 002:460 JLINK_ReadReg(FPS27)  returns 0x00000000 (0000ms, 0293ms total)
T1C874 002:460 JLINK_ReadReg(FPS28)  returns 0x00000000 (0000ms, 0293ms total)
T1C874 002:460 JLINK_ReadReg(FPS29)  returns 0x00000000 (0000ms, 0293ms total)
T1C874 002:460 JLINK_ReadReg(FPS30)  returns 0x00000000 (0000ms, 0293ms total)
T1C874 002:460 JLINK_ReadReg(FPS31)  returns 0x00000000 (0000ms, 0293ms total)
T0C14 002:579 JLINK_ReadMem (0x08008132, 0x0002 Bytes, ...) -- CPU_ReadMem(64 bytes @ 0x08008100) -- Updating C cache (64 bytes @ 0x08008100) -- Read from C cache (2 bytes @ 0x08008132) - Data: 10 BD  returns 0x00 (0001ms, 0294ms total)
T0C14 002:581 JLINK_ReadMem (0x08008134, 0x003C Bytes, ...) -- CPU_ReadMem(64 bytes @ 0x08008140) -- Updating C cache (64 bytes @ 0x08008140) -- Read from C cache (60 bytes @ 0x08008134) - Data: 10 B5 06 F0 53 FC FF F7 DE FF 00 20 10 BD 00 00 ...  returns 0x00 (0001ms, 0295ms total)
T0C14 015:132 JLINK_Close() -- CPU_WriteMem(4 bytes @ 0xE0002008) -- CPU_WriteMem(4 bytes @ 0xE000200C) -- CPU_ReadMem(4 bytes @ 0xE0001000) (0007ms, 0302ms total)
T0C14 015:132  (0007ms, 0302ms total)
T0C14 015:132 Closed (0007ms, 0302ms total)
